Pt	Time	Freq	Zreal	Zimag	Zsig	Zmod	Zphz	Idc	Vdc	IERange
#	s	Hz	ohm	ohm	V	ohm	?	A	V	#
0	2	5000016	436.8702	-77.8615	1	443.7544	-10.10547	-2.66E-07	-0.0001317	8
1	4	3971672	434.0653	-71.44506	1	439.9058	-9.346804	8.11E-07	-0.0001419	8
2	5	3154828	441.7874	-61.1864	1	446.0043	-7.885155	1.37E-08	-0.0001315	8
3	6	2505984	446.6594	-52.52847	1	449.7376	-6.707344	5.57E-07	-0.0001044	8
4	8	1990547	450.5679	-46.14157	1	452.9243	-5.847139	3.50E-07	-0.000107	8
5	9	1581141	454.0476	-40.53272	1	455.8532	-5.101259	4.43E-07	-0.0001204	8
6	10	1256016	456.9908	-37.76178	1	458.5483	-4.723697	4.54E-07	-0.0001222	8
7	12	997641	459.6815	-35.18889	1	461.0265	-4.377488	4.53E-07	-0.0001046	8
8	13	792515.6	464.2811	-33.68624	1	465.5016	-4.149864	2.88E-07	-5.17E-05	7
9	15	629484.4	467.7463	-33.45872	1	468.9415	-4.091499	3.46E-07	-2.28E-05	7
10	16	500015.6	471.5776	-32.06598	1	472.6665	-3.889967	3.64E-07	-4.66E-05	7
11	17	397171.9	475.8465	-32.63726	1	476.9644	-3.923646	3.64E-07	-3.37E-05	7
12	19	315515.6	479.5645	-34.17996	1	480.7811	-4.076744	3.74E-07	-3.20E-05	7
13	20	250640.6	484.5984	-35.24314	1	485.8782	-4.159598	3.85E-07	-3.92E-05	7
14	21	199078.1	489.2735	-36.8016	1	490.6556	-4.301507	3.82E-07	-3.81E-05	7
15	23	158203.1	494.4183	-39.24615	1	495.9735	-4.538533	3.85E-07	-2.74E-05	7
16	24	125671.9	499.7212	-41.8087	1	501.467	-4.782459	4.00E-07	-5.49E-05	7
17	25	99796.9	506.9703	-44.37242	1	508.9084	-5.002048	5.09E-07	-4.83E-05	7
18	26	79265.63	514.0438	-47.7042	1	516.2526	-5.301967	5.13E-07	-4.62E-05	7
19	28	62953.13	522.27	-51.06094	1	524.7601	-5.583908	5.07E-07	-4.42E-05	7
20	29	50015.62	531.498	-54.08827	1	534.2431	-5.810741	5.05E-07	-4.64E-05	7
21	30	39796.87	541.8376	-56.26286	1	544.7509	-5.928184	5.10E-07	-4.39E-05	7
22	32	31640.63	552.95	-57.25771	1	555.9066	-5.911881	5.16E-07	-4.40E-05	7
23	33	25078.13	564.5741	-56.65992	1	567.4102	-5.730941	5.18E-07	-4.46E-05	7
24	34	19921.88	575.4983	-54.56811	1	578.0795	-5.416528	5.24E-07	-4.11E-05	7
25	36	15890.62	585.4317	-51.13709	1	587.6608	-4.992079	5.29E-07	-4.18E-05	7
26	37	12609.37	594.6122	-46.68257	1	596.442	-4.489042	5.30E-07	-4.09E-05	7
27	38	9984.37	602.3322	-41.66756	1	603.7717	-3.957248	5.29E-07	-4.36E-05	7
28	40	7858.456	608.9083	-36.48125	1	610.0002	-3.428638	5.28E-07	-4.55E-05	7
29	41	6328.125	613.5898	-32.00938	1	614.4242	-2.986264	5.32E-07	-4.54E-05	7
30	42	5015.625	617.7026	-27.68609	1	618.3228	-2.56634	5.33E-07	-4.62E-05	7
31	43	3984.375	620.8943	-23.76522	1	621.349	-2.191971	5.34E-07	-4.63E-05	7
32	45	3170.956	623.4631	-20.61588	1	623.8038	-1.893894	5.39E-07	-4.46E-05	7
33	46	2527.573	625.677	-17.88003	1	625.9324	-1.636901	5.35E-07	-4.71E-05	7
34	47	1976.103	627.6342	-15.46777	1	627.8247	-1.411743	5.34E-07	-4.79E-05	7
35	49	1577.524	629.2882	-13.66802	1	629.4366	-1.244258	5.36E-07	-5.06E-05	7
36	50	1265.625	630.7561	-12.23258	1	630.8747	-1.111028	5.41E-07	-4.92E-05	7
37	51	998.264	632.2026	-10.97888	1	632.2979	-0.994903	5.51E-07	-4.31E-05	7
38	53	796.875	633.3934	-9.97727	1	633.472	-0.9024532	5.48E-07	-4.89E-05	7
39	54	627.7902	634.7526	-9.174791	1	634.8189	-0.8281025	5.53E-07	-4.67E-05	7
40	55	495.7933	635.8129	-8.404878	1	635.8684	-0.7573549	4.44E-07	3.06E-05	7
41	57	397.9953	636.9442	-7.848715	1	636.9926	-0.7059888	4.49E-07	3.15E-05	7
42	58	315.5048	638.1027	-7.376542	1	638.1454	-0.6623164	4.51E-07	3.40E-05	7
43	59	252.4038	639.2708	-6.986855	1	639.309	-0.6261843	4.50E-07	3.41E-05	7
44	60	198.6229	640.3956	-6.609821	1	640.4297	-0.5913554	4.54E-07	3.45E-05	7
45	62	158.3615	641.3865	-6.377826	1	641.4182	-0.5697197	4.59E-07	3.78E-05	7
46	63	125.558	642.3404	-6.150568	1	642.3698	-0.5486045	4.56E-07	3.22E-05	7
47	64	100.4464	643.3016	-5.985766	1	643.3295	-0.533108	4.64E-07	3.90E-05	7
48	66	79.00281	644.2112	-5.852972	1	644.2378	-0.5205457	4.57E-07	3.67E-05	7
49	67	62.77901	645.1918	-5.854981	1	645.2184	-0.519933	4.57E-07	3.56E-05	7
50	68	49.86702	646.1587	-5.783589	1	646.1846	-0.5128251	4.54E-07	3.57E-05	7
51	70	39.72458	647.1646	-5.843504	1	647.191	-0.5173321	4.65E-07	3.49E-05	7
52	71	31.6723	648.0934	-5.898637	1	648.1203	-0.5214645	4.72E-07	3.82E-05	7
53	72	24.93351	648.9824	-6.149235	1	649.0115	-0.5428725	4.70E-07	3.57E-05	7
54	74	19.86229	649.9059	-6.2603	1	649.9361	-0.5518916	5.51E-07	8.36E-05	7
55	75	15.83615	651.1782	-6.394363	1	651.2096	-0.5626082	4.25E-07	8.17E-05	7
56	76	12.40079	652.4108	-6.670993	1	652.4449	-0.5858371	3.91E-07	8.53E-05	7
57	77	9.93114	653.4042	-6.969337	1	653.4413	-0.6111048	3.72E-07	8.69E-05	7
58	79	7.944915	654.5794	-7.304338	1	654.6202	-0.6393271	3.55E-07	9.04E-05	7
59	80	6.317385	655.8124	-7.632599	1	655.8568	-0.6668004	3.40E-07	8.95E-05	7
60	82	5.008013	657.1267	-8.053721	1	657.1761	-0.7021798	3.25E-07	8.82E-05	7
61	84	3.945707	658.7084	-8.487156	1	658.7631	-0.738189	3.11E-07	8.97E-05	7
62	87	3.158693	660.2885	-8.95512	1	660.3492	-0.7770227	2.95E-07	8.57E-05	7
63	89	2.504006	662.0794	-9.190071	1	662.1432	-0.7952498	2.86E-07	7.46E-05	7
64	92	1.998082	663.7203	-9.74854	1	663.7919	-0.8414842	2.83E-07	7.93E-05	7
65	96	1.584686	665.3583	-10.31911	1	665.4383	-0.8885352	2.72E-07	7.72E-05	7
66	100	1.266892	667.0455	-10.89523	1	667.1345	-0.9357607	2.62E-07	7.60E-05	7
67	105	0.999041	668.9106	-11.4951	1	669.0094	-0.98452	2.53E-07	7.62E-05	7